16:44:28.591 send:8=> 01 03 27 10 00 64 4f 50 
16:44:29.269 recv:205<= 01 03 c8 12 34 34 56 00 00 00 00 00 00 00 00 00 00 00 00 00 00 00 00 00 00 00 00 00 00 00 00 00 00 00 00 00 00 00 00 00 00 00 00 00 00 00 00 00 00 00 00 00 00 00 00 00 00 00 00 00 00 00 00 00 00 00 00 00 00 00 00 00 00 00 00 00 00 00 00 00 00 00 00 00 00 00 00 00 00 00 00 00 00 00 00 00 00 00 00 00 00 00 00 00 00 00 00 00 00 00 00 00 00 00 00 00 00 00 00 00 00 00 00 00 00 00 00 00 00 00 00 00 00 00 00 00 00 00 00 00 00 00 00 00 00 00 00 00 00 00 00 00 00 00 00 00 00 00 00 00 00 00 00 00 00 00 00 00 00 00 00 00 00 00 00 00 00 00 00 00 00 00 00 00 00 00 00 00 00 00 00 00 00 00 00 00 00 00 00 00 00 00 01 d2 e0 
16:44:30.270 send:8=> 01 03 27 74 00 28 0f 7a 
16:44:30.947 recv:165<= 01 03 a0 12 34 12 34 34 56 34 56 00 00 00 00 00 00 00 00 00 00 00 00 00 00 00 00 00 00 00 00 00 00 00 00 00 00 00 00 00 00 00 00 00 00 00 00 00 00 00 00 00 00 00 00 00 00 00 00 00 00 00 00 00 00 00 00 00 00 00 00 00 00 00 00 00 00 00 00 00 00 00 00 00 00 00 00 00 00 00 00 00 00 00 00 00 00 00 00 00 00 00 00 00 00 00 00 00 00 00 00 00 00 00 00 00 00 00 00 00 00 00 00 00 00 00 00 00 00 00 00 00 00 00 00 00 00 00 00 00 00 00 00 00 00 00 00 00 00 00 00 00 00 00 00 00 00 00 00 00 02 00 02 ab 44 
16:44:31.948 send:8=> 01 03 27 9c 00 14 8f 5f 
16:44:32.392 recv:25<= 01 03 14 01 01 01 01 00 00 00 00 00 00 00 00 00 00 00 00 00 00 00 03 e3 27 
16:44:33.393 send:8=> 01 03 27 b0 00 14 4e 96 
16:44:33.838 recv:25<= 01 03 14 01 01 01 01 01 00 00 00 00 00 00 00 00 00 00 00 00 00 00 04 63 75 
16:44:34.838 send:8=> 01 03 4e 20 00 64 52 c3 
16:44:35.515 recv:205<= 01 03 c8 12 34 34 56 00 00 00 00 00 00 00 00 00 00 00 00 00 00 00 00 00 00 00 00 00 00 00 00 00 00 00 00 00 00 00 00 00 00 00 00 00 00 00 00 00 00 00 00 00 00 00 00 00 00 00 00 00 00 00 00 00 00 00 00 00 00 00 00 00 00 00 00 00 00 00 00 00 00 00 00 00 00 00 00 00 00 00 00 00 00 00 00 00 00 00 00 00 00 00 00 00 00 00 00 00 00 00 00 00 00 00 00 00 00 00 00 00 00 00 00 00 00 00 00 00 00 00 00 00 00 00 00 00 00 00 00 00 00 00 00 00 00 00 00 00 00 00 00 00 00 00 00 00 00 00 00 00 00 00 00 00 00 00 00 00 00 00 00 00 00 00 00 00 00 00 00 00 00 00 00 00 00 00 00 00 00 00 00 00 00 00 00 00 00 00 00 00 00 00 05 d3 23 
16:44:36.516 send:8=> 01 03 4e 84 00 28 12 d5 
16:44:37.093 recv:85<= 01 03 50 12 34 34 56 00 00 00 00 00 00 00 00 00 00 00 00 00 00 00 00 00 00 00 00 00 00 00 00 00 00 00 00 00 00 00 00 00 00 00 00 00 00 00 00 00 00 00 00 00 00 00 00 00 00 00 00 00 00 00 00 00 00 00 00 00 00 00 00 00 00 00 00 00 00 00 00 00 00 00 06 70 8b 
16:44:38.093 send:8=> 01 03 4e ac 00 14 92 cc 
16:44:38.561 recv:45<= 01 03 28 12 34 34 56 00 00 00 00 00 00 00 00 00 00 00 00 00 08 00 07 00 00 00 00 00 00 00 00 00 00 00 00 00 00 00 00 00 00 00 00 c0 76 
16:44:39.561 send:8=> 01 03 4e c0 00 14 52 d1 
16:44:40.029 recv:45<= 01 03 28 12 34 34 56 00 00 00 00 00 00 00 00 00 00 00 00 00 00 00 00 00 00 00 00 00 00 00 00 00 00 00 00 00 00 00 00 00 00 00 00 d1 67 
16:44:44.029 send:8=> 01 03 27 10 00 64 4f 50 
16:44:44.707 recv:205<= 01 03 c8 12 34 34 56 00 00 00 00 00 00 00 00 00 00 00 00 00 00 00 00 00 00 00 00 00 00 00 00 00 00 00 00 00 00 00 00 00 00 00 00 00 00 00 00 00 00 00 00 00 00 00 00 00 00 00 00 00 00 00 00 00 00 00 00 00 00 00 00 00 00 00 00 00 00 00 00 00 00 00 00 00 00 00 00 00 00 00 00 00 00 00 00 00 00 00 00 00 00 00 00 00 00 00 00 00 00 00 00 00 00 00 00 00 00 00 00 00 00 00 00 00 00 00 00 00 00 00 00 00 00 00 00 00 00 00 00 00 00 00 00 00 00 00 00 00 00 00 00 00 00 00 00 00 00 00 00 00 00 00 00 00 00 00 00 00 00 00 00 00 00 00 00 00 00 00 00 00 00 00 00 00 00 00 00 00 00 00 00 00 00 00 00 00 00 00 00 00 00 00 01 d2 e0 
16:44:45.707 send:8=> 01 03 27 74 00 28 0f 7a 
16:44:46.385 recv:165<= 01 03 a0 12 34 12 34 34 56 34 56 00 00 00 00 00 00 00 00 00 00 00 00 00 00 00 00 00 00 00 00 00 00 00 00 00 00 00 00 00 00 00 00 00 00 00 00 00 00 00 00 00 00 00 00 00 00 00 00 00 00 00 00 00 00 00 00 00 00 00 00 00 00 00 00 00 00 00 00 00 00 00 00 00 00 00 00 00 00 00 00 00 00 00 00 00 00 00 00 00 00 00 00 00 00 00 00 00 00 00 00 00 00 00 00 00 00 00 00 00 00 00 00 00 00 00 00 00 00 00 00 00 00 00 00 00 00 00 00 00 00 00 00 00 00 00 00 00 00 00 00 00 00 00 00 00 00 00 00 00 02 00 02 ab 44 
16:44:47.385 send:8=> 01 03 27 9c 00 14 8f 5f 
16:44:47.830 recv:25<= 01 03 14 01 01 01 01 00 00 00 00 00 00 00 00 00 00 00 00 00 00 00 03 e3 27 
16:44:48.830 send:8=> 01 03 27 b0 00 14 4e 96 
16:44:49.275 recv:25<= 01 03 14 01 01 01 01 01 00 00 00 00 00 00 00 00 00 00 00 00 00 00 04 63 75 
16:44:50.275 send:8=> 01 03 4e 20 00 64 52 c3 
16:44:50.953 recv:205<= 01 03 c8 12 34 34 56 00 00 00 00 00 00 00 00 00 00 00 00 00 00 00 00 00 00 00 00 00 00 00 00 00 00 00 00 00 00 00 00 00 00 00 00 00 00 00 00 00 00 00 00 00 00 00 00 00 00 00 00 00 00 00 00 00 00 00 00 00 00 00 00 00 00 00 00 00 00 00 00 00 00 00 00 00 00 00 00 00 00 00 00 00 00 00 00 00 00 00 00 00 00 00 00 00 00 00 00 00 00 00 00 00 00 00 00 00 00 00 00 00 00 00 00 00 00 00 00 00 00 00 00 00 00 00 00 00 00 00 00 00 00 00 00 00 00 00 00 00 00 00 00 00 00 00 00 00 00 00 00 00 00 00 00 00 00 00 00 00 00 00 00 00 00 00 00 00 00 00 00 00 00 00 00 00 00 00 00 00 00 00 00 00 00 00 00 00 00 00 00 00 00 00 05 d3 23 
16:44:51.953 send:8=> 01 03 4e 84 00 28 12 d5 
16:44:52.531 recv:85<= 01 03 50 12 34 34 56 00 00 00 00 00 00 00 00 00 00 00 00 00 00 00 00 00 00 00 00 00 00 00 00 00 00 00 00 00 00 00 00 00 00 00 00 00 00 00 00 00 00 00 00 00 00 00 00 00 00 00 00 00 00 00 00 00 00 00 00 00 00 00 00 00 00 00 00 00 00 00 00 00 00 00 06 70 8b 
16:44:53.531 send:8=> 01 03 4e ac 00 14 92 cc 
16:44:53.999 recv:45<= 01 03 28 12 34 34 56 00 00 00 00 00 00 00 00 00 00 00 00 00 08 00 07 00 00 00 00 00 00 00 00 00 00 00 00 00 00 00 00 00 00 00 00 c0 76 
16:44:54.999 send:8=> 01 03 4e c0 00 14 52 d1 
16:44:55.467 recv:45<= 01 03 28 12 34 34 56 00 00 00 00 00 00 00 00 00 00 00 00 00 00 00 00 00 00 00 00 00 00 00 00 00 00 00 00 00 00 00 00 00 00 00 00 d1 67 
16:44:59.467 send:8=> 01 03 27 10 00 64 4f 50 
16:45:00.145 recv:205<= 01 03 c8 12 34 34 56 00 00 00 00 00 00 00 00 00 00 00 00 00 00 00 00 00 00 00 00 00 00 00 00 00 00 00 00 00 00 00 00 00 00 00 00 00 00 00 00 00 00 00 00 00 00 00 00 00 00 00 00 00 00 00 00 00 00 00 00 00 00 00 00 00 00 00 00 00 00 00 00 00 00 00 00 00 00 00 00 00 00 00 00 00 00 00 00 00 00 00 00 00 00 00 00 00 00 00 00 00 00 00 00 00 00 00 00 00 00 00 00 00 00 00 00 00 00 00 00 00 00 00 00 00 00 00 00 00 00 00 00 00 00 00 00 00 00 00 00 00 00 00 00 00 00 00 00 00 00 00 00 00 00 00 00 00 00 00 00 00 00 00 00 00 00 00 00 00 00 00 00 00 00 00 00 00 00 00 00 00 00 00 00 00 00 00 00 00 00 00 00 00 00 00 01 d2 e0 
16:45:01.145 send:8=> 01 03 27 74 00 28 0f 7a 
16:45:01.822 recv:165<= 01 03 a0 12 34 12 34 34 56 34 56 00 00 00 00 00 00 00 00 00 00 00 00 00 00 00 00 00 00 00 00 00 00 00 00 00 00 00 00 00 00 00 00 00 00 00 00 00 00 00 00 00 00 00 00 00 00 00 00 00 00 00 00 00 00 00 00 00 00 00 00 00 00 00 00 00 00 00 00 00 00 00 00 00 00 00 00 00 00 00 00 00 00 00 00 00 00 00 00 00 00 00 00 00 00 00 00 00 00 00 00 00 00 00 00 00 00 00 00 00 00 00 00 00 00 00 00 00 00 00 00 00 00 00 00 00 00 00 00 00 00 00 00 00 00 00 00 00 00 00 00 00 00 00 00 00 00 00 00 00 02 00 02 ab 44 
16:45:02.823 send:8=> 01 03 27 9c 00 14 8f 5f 
16:45:03.268 recv:25<= 01 03 14 01 01 01 01 00 00 00 00 00 00 00 00 00 00 00 00 00 00 00 03 e3 27 
16:45:04.268 send:8=> 01 03 27 b0 00 14 4e 96 
16:45:04.713 recv:25<= 01 03 14 01 01 01 01 01 00 00 00 00 00 00 00 00 00 00 00 00 00 00 04 63 75 
16:45:05.713 send:8=> 01 03 4e 20 00 64 52 c3 
16:45:06.391 recv:205<= 01 03 c8 12 34 34 56 00 00 00 00 00 00 00 00 00 00 00 00 00 00 00 00 00 00 00 00 00 00 00 00 00 00 00 00 00 00 00 00 00 00 00 00 00 00 00 00 00 00 00 00 00 00 00 00 00 00 00 00 00 00 00 00 00 00 00 00 00 00 00 00 00 00 00 00 00 00 00 00 00 00 00 00 00 00 00 00 00 00 00 00 00 00 00 00 00 00 00 00 00 00 00 00 00 00 00 00 00 00 00 00 00 00 00 00 00 00 00 00 00 00 00 00 00 00 00 00 00 00 00 00 00 00 00 00 00 00 00 00 00 00 00 00 00 00 00 00 00 00 00 00 00 00 00 00 00 00 00 00 00 00 00 00 00 00 00 00 00 00 00 00 00 00 00 00 00 00 00 00 00 00 00 00 00 00 00 00 00 00 00 00 00 00 00 00 00 00 00 00 00 00 00 05 d3 23 
16:45:07.391 send:8=> 01 03 4e 84 00 28 12 d5 
16:45:07.969 recv:85<= 01 03 50 12 34 34 56 00 00 00 00 00 00 00 00 00 00 00 00 00 00 00 00 00 00 00 00 00 00 00 00 00 00 00 00 00 00 00 00 00 00 00 00 00 00 00 00 00 00 00 00 00 00 00 00 00 00 00 00 00 00 00 00 00 00 00 00 00 00 00 00 00 00 00 00 00 00 00 00 00 00 00 06 70 8b 
16:45:08.969 send:8=> 01 03 4e ac 00 14 92 cc 
16:45:09.437 recv:45<= 01 03 28 12 34 34 56 00 00 00 00 00 00 00 00 00 00 00 00 00 08 00 07 00 00 00 00 00 00 00 00 00 00 00 00 00 00 00 00 00 00 00 00 c0 76 
16:45:10.437 send:8=> 01 03 4e c0 00 14 52 d1 
16:45:10.905 recv:45<= 01 03 28 12 34 34 56 00 00 00 00 00 00 00 00 00 00 00 00 00 00 00 00 00 00 00 00 00 00 00 00 00 00 00 00 00 00 00 00 00 00 00 00 d1 67 
16:45:14.905 send:8=> 01 03 27 10 00 64 4f 50 
16:45:15.582 recv:205<= 01 03 c8 12 34 34 56 00 00 00 00 00 00 00 00 00 00 00 00 00 00 00 00 00 00 00 00 00 00 00 00 00 00 00 00 00 00 00 00 00 00 00 00 00 00 00 00 00 00 00 00 00 00 00 00 00 00 00 00 00 00 00 00 00 00 00 00 00 00 00 00 00 00 00 00 00 00 00 00 00 00 00 00 00 00 00 00 00 00 00 00 00 00 00 00 00 00 00 00 00 00 00 00 00 00 00 00 00 00 00 00 00 00 00 00 00 00 00 00 00 00 00 00 00 00 00 00 00 00 00 00 00 00 00 00 00 00 00 00 00 00 00 00 00 00 00 00 00 00 00 00 00 00 00 00 00 00 00 00 00 00 00 00 00 00 00 00 00 00 00 00 00 00 00 00 00 00 00 00 00 00 00 00 00 00 00 00 00 00 00 00 00 00 00 00 00 00 00 00 00 00 00 01 d2 e0 
16:45:16.583 send:8=> 01 03 27 74 00 28 0f 7a 
16:45:17.260 recv:165<= 01 03 a0 12 34 12 34 34 56 34 56 00 00 00 00 00 00 00 00 00 00 00 00 00 00 00 00 00 00 00 00 00 00 00 00 00 00 00 00 00 00 00 00 00 00 00 00 00 00 00 00 00 00 00 00 00 00 00 00 00 00 00 00 00 00 00 00 00 00 00 00 00 00 00 00 00 00 00 00 00 00 00 00 00 00 00 00 00 00 00 00 00 00 00 00 00 00 00 00 00 00 00 00 00 00 00 00 00 00 00 00 00 00 00 00 00 00 00 00 00 00 00 00 00 00 00 00 00 00 00 00 00 00 00 00 00 00 00 00 00 00 00 00 00 00 00 00 00 00 00 00 00 00 00 00 00 00 00 00 00 02 00 02 ab 44 
16:45:18.261 send:8=> 01 03 27 9c 00 14 8f 5f 
16:45:18.706 recv:25<= 01 03 14 01 01 01 01 00 00 00 00 00 00 00 00 00 00 00 00 00 00 00 03 e3 27 
16:45:19.706 send:8=> 01 03 27 b0 00 14 4e 96 
16:45:20.151 recv:25<= 01 03 14 01 01 01 01 01 00 00 00 00 00 00 00 00 00 00 00 00 00 00 04 63 75 
16:45:21.151 send:8=> 01 03 4e 20 00 64 52 c3 
16:45:21.828 recv:205<= 01 03 c8 12 34 34 56 00 00 00 00 00 00 00 00 00 00 00 00 00 00 00 00 00 00 00 00 00 00 00 00 00 00 00 00 00 00 00 00 00 00 00 00 00 00 00 00 00 00 00 00 00 00 00 00 00 00 00 00 00 00 00 00 00 00 00 00 00 00 00 00 00 00 00 00 00 00 00 00 00 00 00 00 00 00 00 00 00 00 00 00 00 00 00 00 00 00 00 00 00 00 00 00 00 00 00 00 00 00 00 00 00 00 00 00 00 00 00 00 00 00 00 00 00 00 00 00 00 00 00 00 00 00 00 00 00 00 00 00 00 00 00 00 00 00 00 00 00 00 00 00 00 00 00 00 00 00 00 00 00 00 00 00 00 00 00 00 00 00 00 00 00 00 00 00 00 00 00 00 00 00 00 00 00 00 00 00 00 00 00 00 00 00 00 00 00 00 00 00 00 00 00 05 d3 23 
16:45:22.829 send:8=> 01 03 4e 84 00 28 12 d5 
16:45:23.406 recv:85<= 01 03 50 12 34 34 56 00 00 00 00 00 00 00 00 00 00 00 00 00 00 00 00 00 00 00 00 00 00 00 00 00 00 00 00 00 00 00 00 00 00 00 00 00 00 00 00 00 00 00 00 00 00 00 00 00 00 00 00 00 00 00 00 00 00 00 00 00 00 00 00 00 00 00 00 00 00 00 00 00 00 00 06 70 8b 
16:45:24.407 send:8=> 01 03 4e ac 00 14 92 cc 
16:45:24.874 recv:45<= 01 03 28 12 34 34 56 00 00 00 00 00 00 00 00 00 00 00 00 00 08 00 07 00 00 00 00 00 00 00 00 00 00 00 00 00 00 00 00 00 00 00 00 c0 76 
16:45:25.875 send:8=> 01 03 4e c0 00 14 52 d1 
16:45:26.342 recv:45<= 01 03 28 12 34 34 56 00 00 00 00 00 00 00 00 00 00 00 00 00 00 00 00 00 00 00 00 00 00 00 00 00 00 00 00 00 00 00 00 00 00 00 00 d1 67 
16:45:30.343 send:8=> 01 03 27 10 00 64 4f 50 
16:45:31.020 recv:205<= 01 03 c8 12 34 34 56 00 00 00 00 00 00 00 00 00 00 00 00 00 00 00 00 00 00 00 00 00 00 00 00 00 00 00 00 00 00 00 00 00 00 00 00 00 00 00 00 00 00 00 00 00 00 00 00 00 00 00 00 00 00 00 00 00 00 00 00 00 00 00 00 00 00 00 00 00 00 00 00 00 00 00 00 00 00 00 00 00 00 00 00 00 00 00 00 00 00 00 00 00 00 00 00 00 00 00 00 00 00 00 00 00 00 00 00 00 00 00 00 00 00 00 00 00 00 00 00 00 00 00 00 00 00 00 00 00 00 00 00 00 00 00 00 00 00 00 00 00 00 00 00 00 00 00 00 00 00 00 00 00 00 00 00 00 00 00 00 00 00 00 00 00 00 00 00 00 00 00 00 00 00 00 00 00 00 00 00 00 00 00 00 00 00 00 00 00 00 00 00 00 00 00 01 d2 e0 
16:45:32.021 send:8=> 01 03 27 74 00 28 0f 7a 
16:45:32.698 recv:165<= 01 03 a0 12 34 12 34 34 56 34 56 00 00 00 00 00 00 00 00 00 00 00 00 00 00 00 00 00 00 00 00 00 00 00 00 00 00 00 00 00 00 00 00 00 00 00 00 00 00 00 00 00 00 00 00 00 00 00 00 00 00 00 00 00 00 00 00 00 00 00 00 00 00 00 00 00 00 00 00 00 00 00 00 00 00 00 00 00 00 00 00 00 00 00 00 00 00 00 00 00 00 00 00 00 00 00 00 00 00 00 00 00 00 00 00 00 00 00 00 00 00 00 00 00 00 00 00 00 00 00 00 00 00 00 00 00 00 00 00 00 00 00 00 00 00 00 00 00 00 00 00 00 00 00 00 00 00 00 00 00 02 00 02 ab 44 
16:45:33.699 send:8=> 01 03 27 9c 00 14 8f 5f 
16:45:34.144 recv:25<= 01 03 14 01 01 01 01 00 00 00 00 00 00 00 00 00 00 00 00 00 00 00 03 e3 27 
16:45:35.144 send:8=> 01 03 27 b0 00 14 4e 96 
16:45:35.589 recv:25<= 01 03 14 01 01 01 01 01 00 00 00 00 00 00 00 00 00 00 00 00 00 00 04 63 75 
16:45:36.589 send:8=> 01 03 4e 20 00 64 52 c3 
16:45:37.266 recv:205<= 01 03 c8 12 34 34 56 00 00 00 00 00 00 00 00 00 00 00 00 00 00 00 00 00 00 00 00 00 00 00 00 00 00 00 00 00 00 00 00 00 00 00 00 00 00 00 00 00 00 00 00 00 00 00 00 00 00 00 00 00 00 00 00 00 00 00 00 00 00 00 00 00 00 00 00 00 00 00 00 00 00 00 00 00 00 00 00 00 00 00 00 00 00 00 00 00 00 00 00 00 00 00 00 00 00 00 00 00 00 00 00 00 00 00 00 00 00 00 00 00 00 00 00 00 00 00 00 00 00 00 00 00 00 00 00 00 00 00 00 00 00 00 00 00 00 00 00 00 00 00 00 00 00 00 00 00 00 00 00 00 00 00 00 00 00 00 00 00 00 00 00 00 00 00 00 00 00 00 00 00 00 00 00 00 00 00 00 00 00 00 00 00 00 00 00 00 00 00 00 00 00 00 05 d3 23 
16:45:38.267 send:8=> 01 03 4e 84 00 28 12 d5 
16:45:38.844 recv:85<= 01 03 50 12 34 34 56 00 00 00 00 00 00 00 00 00 00 00 00 00 00 00 00 00 00 00 00 00 00 00 00 00 00 00 00 00 00 00 00 00 00 00 00 00 00 00 00 00 00 00 00 00 00 00 00 00 00 00 00 00 00 00 00 00 00 00 00 00 00 00 00 00 00 00 00 00 00 00 00 00 00 00 06 70 8b 
16:45:39.845 send:8=> 01 03 4e ac 00 14 92 cc 
16:45:40.312 recv:45<= 01 03 28 12 34 34 56 00 00 00 00 00 00 00 00 00 00 00 00 00 08 00 07 00 00 00 00 00 00 00 00 00 00 00 00 00 00 00 00 00 00 00 00 c0 76 
16:45:41.313 send:8=> 01 03 4e c0 00 14 52 d1 
16:45:41.781 recv:45<= 01 03 28 12 34 34 56 00 00 00 00 00 00 00 00 00 00 00 00 00 00 00 00 00 00 00 00 00 00 00 00 00 00 00 00 00 00 00 00 00 00 00 00 d1 67 
16:45:45.781 send:8=> 01 03 27 10 00 64 4f 50 
16:45:46.458 recv:205<= 01 03 c8 12 34 34 56 00 00 00 00 00 00 00 00 00 00 00 00 00 00 00 00 00 00 00 00 00 00 00 00 00 00 00 00 00 00 00 00 00 00 00 00 00 00 00 00 00 00 00 00 00 00 00 00 00 00 00 00 00 00 00 00 00 00 00 00 00 00 00 00 00 00 00 00 00 00 00 00 00 00 00 00 00 00 00 00 00 00 00 00 00 00 00 00 00 00 00 00 00 00 00 00 00 00 00 00 00 00 00 00 00 00 00 00 00 00 00 00 00 00 00 00 00 00 00 00 00 00 00 00 00 00 00 00 00 00 00 00 00 00 00 00 00 00 00 00 00 00 00 00 00 00 00 00 00 00 00 00 00 00 00 00 00 00 00 00 00 00 00 00 00 00 00 00 00 00 00 00 00 00 00 00 00 00 00 00 00 00 00 00 00 00 00 00 00 00 00 00 00 00 00 01 d2 e0 
16:45:47.459 send:8=> 01 03 27 74 00 28 0f 7a 
16:45:48.136 recv:165<= 01 03 a0 12 34 12 34 34 56 34 56 00 00 00 00 00 00 00 00 00 00 00 00 00 00 00 00 00 00 00 00 00 00 00 00 00 00 00 00 00 00 00 00 00 00 00 00 00 00 00 00 00 00 00 00 00 00 00 00 00 00 00 00 00 00 00 00 00 00 00 00 00 00 00 00 00 00 00 00 00 00 00 00 00 00 00 00 00 00 00 00 00 00 00 00 00 00 00 00 00 00 00 00 00 00 00 00 00 00 00 00 00 00 00 00 00 00 00 00 00 00 00 00 00 00 00 00 00 00 00 00 00 00 00 00 00 00 00 00 00 00 00 00 00 00 00 00 00 00 00 00 00 00 00 00 00 00 00 00 00 02 00 02 ab 44 
16:45:49.137 send:8=> 01 03 27 9c 00 14 8f 5f 
16:45:49.582 recv:25<= 01 03 14 01 01 01 01 00 00 00 00 00 00 00 00 00 00 00 00 00 00 00 03 e3 27 
16:45:50.582 send:8=> 01 03 27 b0 00 14 4e 96 
16:45:51.027 recv:25<= 01 03 14 01 01 01 01 01 00 00 00 00 00 00 00 00 00 00 00 00 00 00 04 63 75 
16:45:52.027 send:8=> 01 03 4e 20 00 64 52 c3 
16:45:52.704 recv:205<= 01 03 c8 12 34 34 56 00 00 00 00 00 00 00 00 00 00 00 00 00 00 00 00 00 00 00 00 00 00 00 00 00 00 00 00 00 00 00 00 00 00 00 00 00 00 00 00 00 00 00 00 00 00 00 00 00 00 00 00 00 00 00 00 00 00 00 00 00 00 00 00 00 00 00 00 00 00 00 00 00 00 00 00 00 00 00 00 00 00 00 00 00 00 00 00 00 00 00 00 00 00 00 00 00 00 00 00 00 00 00 00 00 00 00 00 00 00 00 00 00 00 00 00 00 00 00 00 00 00 00 00 00 00 00 00 00 00 00 00 00 00 00 00 00 00 00 00 00 00 00 00 00 00 00 00 00 00 00 00 00 00 00 00 00 00 00 00 00 00 00 00 00 00 00 00 00 00 00 00 00 00 00 00 00 00 00 00 00 00 00 00 00 00 00 00 00 00 00 00 00 00 00 05 d3 23 
16:45:53.705 send:8=> 01 03 4e 84 00 28 12 d5 
16:45:54.282 recv:85<= 01 03 50 12 34 34 56 00 00 00 00 00 00 00 00 00 00 00 00 00 00 00 00 00 00 00 00 00 00 00 00 00 00 00 00 00 00 00 00 00 00 00 00 00 00 00 00 00 00 00 00 00 00 00 00 00 00 00 00 00 00 00 00 00 00 00 00 00 00 00 00 00 00 00 00 00 00 00 00 00 00 00 06 70 8b 
16:45:55.282 send:8=> 01 03 4e ac 00 14 92 cc 
16:45:55.750 recv:45<= 01 03 28 12 34 34 56 00 00 00 00 00 00 00 00 00 00 00 00 00 08 00 07 00 00 00 00 00 00 00 00 00 00 00 00 00 00 00 00 00 00 00 00 c0 76 
16:45:56.751 send:8=> 01 03 4e c0 00 14 52 d1 
16:45:57.218 recv:45<= 01 03 28 12 34 34 56 00 00 00 00 00 00 00 00 00 00 00 00 00 00 00 00 00 00 00 00 00 00 00 00 00 00 00 00 00 00 00 00 00 00 00 00 d1 67 
16:46:01.219 send:8=> 01 03 27 10 00 64 4f 50 
16:46:01.896 recv:205<= 01 03 c8 12 34 34 56 00 00 00 00 00 00 00 00 00 00 00 00 00 00 00 00 00 00 00 00 00 00 00 00 00 00 00 00 00 00 00 00 00 00 00 00 00 00 00 00 00 00 00 00 00 00 00 00 00 00 00 00 00 00 00 00 00 00 00 00 00 00 00 00 00 00 00 00 00 00 00 00 00 00 00 00 00 00 00 00 00 00 00 00 00 00 00 00 00 00 00 00 00 00 00 00 00 00 00 00 00 00 00 00 00 00 00 00 00 00 00 00 00 00 00 00 00 00 00 00 00 00 00 00 00 00 00 00 00 00 00 00 00 00 00 00 00 00 00 00 00 00 00 00 00 00 00 00 00 00 00 00 00 00 00 00 00 00 00 00 00 00 00 00 00 00 00 00 00 00 00 00 00 00 00 00 00 00 00 00 00 00 00 00 00 00 00 00 00 00 00 00 00 00 00 01 d2 e0 
16:46:02.897 send:8=> 01 03 27 74 00 28 0f 7a 
16:46:03.574 recv:165<= 01 03 a0 12 34 12 34 34 56 34 56 00 00 00 00 00 00 00 00 00 00 00 00 00 00 00 00 00 00 00 00 00 00 00 00 00 00 00 00 00 00 00 00 00 00 00 00 00 00 00 00 00 00 00 00 00 00 00 00 00 00 00 00 00 00 00 00 00 00 00 00 00 00 00 00 00 00 00 00 00 00 00 00 00 00 00 00 00 00 00 00 00 00 00 00 00 00 00 00 00 00 00 00 00 00 00 00 00 00 00 00 00 00 00 00 00 00 00 00 00 00 00 00 00 00 00 00 00 00 00 00 00 00 00 00 00 00 00 00 00 00 00 00 00 00 00 00 00 00 00 00 00 00 00 00 00 00 00 00 00 02 00 02 ab 44 
16:46:04.575 send:8=> 01 03 27 9c 00 14 8f 5f 
16:46:05.019 recv:25<= 01 03 14 01 01 01 01 00 00 00 00 00 00 00 00 00 00 00 00 00 00 00 03 e3 27 
16:46:06.020 send:8=> 01 03 27 b0 00 14 4e 96 
16:46:06.465 recv:25<= 01 03 14 01 01 01 01 01 00 00 00 00 00 00 00 00 00 00 00 00 00 00 04 63 75 
16:46:07.465 send:8=> 01 03 4e 20 00 64 52 c3 
16:46:08.142 recv:205<= 01 03 c8 12 34 34 56 00 00 00 00 00 00 00 00 00 00 00 00 00 00 00 00 00 00 00 00 00 00 00 00 00 00 00 00 00 00 00 00 00 00 00 00 00 00 00 00 00 00 00 00 00 00 00 00 00 00 00 00 00 00 00 00 00 00 00 00 00 00 00 00 00 00 00 00 00 00 00 00 00 00 00 00 00 00 00 00 00 00 00 00 00 00 00 00 00 00 00 00 00 00 00 00 00 00 00 00 00 00 00 00 00 00 00 00 00 00 00 00 00 00 00 00 00 00 00 00 00 00 00 00 00 00 00 00 00 00 00 00 00 00 00 00 00 00 00 00 00 00 00 00 00 00 00 00 00 00 00 00 00 00 00 00 00 00 00 00 00 00 00 00 00 00 00 00 00 00 00 00 00 00 00 00 00 00 00 00 00 00 00 00 00 00 00 00 00 00 00 00 00 00 00 05 d3 23 
16:46:09.143 send:8=> 01 03 4e 84 00 28 12 d5 
16:46:09.720 recv:85<= 01 03 50 12 34 34 56 00 00 00 00 00 00 00 00 00 00 00 00 00 00 00 00 00 00 00 00 00 00 00 00 00 00 00 00 00 00 00 00 00 00 00 00 00 00 00 00 00 00 00 00 00 00 00 00 00 00 00 00 00 00 00 00 00 00 00 00 00 00 00 00 00 00 00 00 00 00 00 00 00 00 00 06 70 8b 
16:46:10.720 send:8=> 01 03 4e ac 00 14 92 cc 
16:46:11.188 recv:45<= 01 03 28 12 34 34 56 00 00 00 00 00 00 00 00 00 00 00 00 00 08 00 07 00 00 00 00 00 00 00 00 00 00 00 00 00 00 00 00 00 00 00 00 c0 76 
16:46:12.188 send:8=> 01 03 4e c0 00 14 52 d1 
16:46:12.656 recv:45<= 01 03 28 12 34 34 56 00 00 00 00 00 00 00 00 00 00 00 00 00 00 00 00 00 00 00 00 00 00 00 00 00 00 00 00 00 00 00 00 00 00 00 00 d1 67 
16:46:16.657 send:8=> 01 03 27 10 00 64 4f 50 
16:46:17.334 recv:205<= 01 03 c8 12 34 34 56 00 00 00 00 00 00 00 00 00 00 00 00 00 00 00 00 00 00 00 00 00 00 00 00 00 00 00 00 00 00 00 00 00 00 00 00 00 00 00 00 00 00 00 00 00 00 00 00 00 00 00 00 00 00 00 00 00 00 00 00 00 00 00 00 00 00 00 00 00 00 00 00 00 00 00 00 00 00 00 00 00 00 00 00 00 00 00 00 00 00 00 00 00 00 00 00 00 00 00 00 00 00 00 00 00 00 00 00 00 00 00 00 00 00 00 00 00 00 00 00 00 00 00 00 00 00 00 00 00 00 00 00 00 00 00 00 00 00 00 00 00 00 00 00 00 00 00 00 00 00 00 00 00 00 00 00 00 00 00 00 00 00 00 00 00 00 00 00 00 00 00 00 00 00 00 00 00 00 00 00 00 00 00 00 00 00 00 00 00 00 00 00 00 00 00 01 d2 e0 
16:46:18.335 send:8=> 01 03 27 74 00 28 0f 7a 
16:46:19.012 recv:165<= 01 03 a0 12 34 12 34 34 56 34 56 00 00 00 00 00 00 00 00 00 00 00 00 00 00 00 00 00 00 00 00 00 00 00 00 00 00 00 00 00 00 00 00 00 00 00 00 00 00 00 00 00 00 00 00 00 00 00 00 00 00 00 00 00 00 00 00 00 00 00 00 00 00 00 00 00 00 00 00 00 00 00 00 00 00 00 00 00 00 00 00 00 00 00 00 00 00 00 00 00 00 00 00 00 00 00 00 00 00 00 00 00 00 00 00 00 00 00 00 00 00 00 00 00 00 00 00 00 00 00 00 00 00 00 00 00 00 00 00 00 00 00 00 00 00 00 00 00 00 00 00 00 00 00 00 00 00 00 00 00 02 00 02 ab 44 
16:46:20.013 send:8=> 01 03 27 9c 00 14 8f 5f 
16:46:20.457 recv:25<= 01 03 14 01 01 01 01 00 00 00 00 00 00 00 00 00 00 00 00 00 00 00 03 e3 27 
16:46:21.458 send:8=> 01 03 27 b0 00 14 4e 96 
16:46:21.903 recv:25<= 01 03 14 01 01 01 01 01 00 00 00 00 00 00 00 00 00 00 00 00 00 00 04 63 75 
16:46:22.903 send:8=> 01 03 4e 20 00 64 52 c3 
16:46:23.580 recv:205<= 01 03 c8 12 34 34 56 00 00 00 00 00 00 00 00 00 00 00 00 00 00 00 00 00 00 00 00 00 00 00 00 00 00 00 00 00 00 00 00 00 00 00 00 00 00 00 00 00 00 00 00 00 00 00 00 00 00 00 00 00 00 00 00 00 00 00 00 00 00 00 00 00 00 00 00 00 00 00 00 00 00 00 00 00 00 00 00 00 00 00 00 00 00 00 00 00 00 00 00 00 00 00 00 00 00 00 00 00 00 00 00 00 00 00 00 00 00 00 00 00 00 00 00 00 00 00 00 00 00 00 00 00 00 00 00 00 00 00 00 00 00 00 00 00 00 00 00 00 00 00 00 00 00 00 00 00 00 00 00 00 00 00 00 00 00 00 00 00 00 00 00 00 00 00 00 00 00 00 00 00 00 00 00 00 00 00 00 00 00 00 00 00 00 00 00 00 00 00 00 00 00 00 05 d3 23 
16:46:24.581 send:8=> 01 03 4e 84 00 28 12 d5 
16:46:25.158 recv:85<= 01 03 50 12 34 34 56 00 00 00 00 00 00 00 00 00 00 00 00 00 00 00 00 00 00 00 00 00 00 00 00 00 00 00 00 00 00 00 00 00 00 00 00 00 00 00 00 00 00 00 00 00 00 00 00 00 00 00 00 00 00 00 00 00 00 00 00 00 00 00 00 00 00 00 00 00 00 00 00 00 00 00 06 70 8b 
16:46:26.158 send:8=> 01 03 4e ac 00 14 92 cc 
16:46:26.626 recv:45<= 01 03 28 12 34 34 56 00 00 00 00 00 00 00 00 00 00 00 00 00 08 00 07 00 00 00 00 00 00 00 00 00 00 00 00 00 00 00 00 00 00 00 00 c0 76 
16:46:27.627 send:8=> 01 03 4e c0 00 14 52 d1 
16:46:28.094 recv:45<= 01 03 28 12 34 34 56 00 00 00 00 00 00 00 00 00 00 00 00 00 00 00 00 00 00 00 00 00 00 00 00 00 00 00 00 00 00 00 00 00 00 00 00 d1 67 
16:46:32.095 send:8=> 01 03 27 10 00 64 4f 50 
16:46:32.772 recv:205<= 01 03 c8 12 34 34 56 00 00 00 00 00 00 00 00 00 00 00 00 00 00 00 00 00 00 00 00 00 00 00 00 00 00 00 00 00 00 00 00 00 00 00 00 00 00 00 00 00 00 00 00 00 00 00 00 00 00 00 00 00 00 00 00 00 00 00 00 00 00 00 00 00 00 00 00 00 00 00 00 00 00 00 00 00 00 00 00 00 00 00 00 00 00 00 00 00 00 00 00 00 00 00 00 00 00 00 00 00 00 00 00 00 00 00 00 00 00 00 00 00 00 00 00 00 00 00 00 00 00 00 00 00 00 00 00 00 00 00 00 00 00 00 00 00 00 00 00 00 00 00 00 00 00 00 00 00 00 00 00 00 00 00 00 00 00 00 00 00 00 00 00 00 00 00 00 00 00 00 00 00 00 00 00 00 00 00 00 00 00 00 00 00 00 00 00 00 00 00 00 00 00 00 01 d2 e0 
16:46:33.773 send:8=> 01 03 27 74 00 28 0f 7a 
